
T2584 000:631 SEGGER J-Link V4.40a Log File (0004ms, 0630ms total)
T2584 000:631 DLL Compiled: Dec 16 2011 20:52:42 (0005ms, 0630ms total)
T2584 000:631 Logging started @ 2019-09-21 19:55 (0005ms, 0630ms total)
T2584 000:636 JLINK_SetWarnOutHandler(...) (0001ms, 0635ms total)
T2584 000:637 JLINK_OpenEx(...)
Firmware: J-Link ARM-OB STM32 compiled Aug 22 2012 19:52:04
Hardware: V7.00
S/N: 20090937
Feature(s): RDI,FlashDL,FlashBP,JFlash,GDBFull  returns O.K. (0334ms, 0636ms total)
T2584 000:971 JLINK_SetErrorOutHandler(...) (0000ms, 0970ms total)
T2584 000:971 JLINK_ExecCommand("ProjectFile = "C:\Users\13791\Desktop\嵌软学习任务\3508_Current_Pid\3508电流环（bug）\JLinkSettings.ini"", ...)  returns 0x00 (0002ms, 0970ms total)
T2584 000:978 JLINK_ExecCommand("Device = STM32F105RB", ...)
                JLINK_ExecCommand("map ram 0x20000000 - 0x20004FFF", ...)  returns 0x00 (0000ms, 0000ms total)
                JLINK_AddMirrorAreaEx(Addr = 0x00000000, Size = 0x00000000) (0000ms, 0000ms total)
              Device "STM32F105RB" selected (128 KB flash, 20 KB RAM).  returns 0x00 (0015ms, 0972ms total)
T2584 000:993 JLINK_ExecCommand("DisableConnectionTimeout", ...)  returns 0x00 (0000ms, 0987ms total)
T2584 000:993 JLINK_GetHardwareVersion()  returns 0x11170 (0000ms, 0987ms total)
T2584 000:993 JLINK_GetDLLVersion()  returns 44001 (0000ms, 0987ms total)
T2584 000:994 JLINK_GetFirmwareString(...) (0000ms, 0988ms total)
T2584 001:005 JLINK_GetDLLVersion()  returns 44001 (0000ms, 0988ms total)
T2584 001:006 JLINK_GetCompileDateTime() (0000ms, 0989ms total)
T2584 001:008 JLINK_GetFirmwareString(...) (0000ms, 0989ms total)
T2584 001:012 JLINK_GetHardwareVersion()  returns 0x11170 (0001ms, 0989ms total)
T2584 001:024 JLINK_TIF_Select(JLINKARM_TIF_SWD)  returns 0x00 (0001ms, 0990ms total)
T2584 001:025 JLINK_SetSpeed(20000) (0000ms, 0991ms total)
T2584 001:025 JLINK_GetId() >0x108 TIF>Found SWD-DP with ID 0x1BA01477 >0x33 TIF> >0x33 TIF> >0x35 TIF> >0x33 TIF> >0x35 TIF> >0x33 TIF> >0x33 TIF> >0x35 TIF> >0x33 TIF> >0x33 TIF> >0x35 TIF> >0x33 TIF> >0x33 TIF> >0x35 TIF> >0x33 TIF> >0x33 TIF> >0x35 TIF> >0x35 TIF> >0x35 TIF> >0x33 TIF> >0x33 TIF> >0x35 TIF> >0x33 TIF> >0x33 TIF> >0x33 TIF>TPIU fitted.ETM fitted. >0x35 TIF> >0x33 TIF> >0x33 TIF> >0x35 TIF> >0x33 TIF> >0x33 TIF>  FPUnit: 6 code (BP) slots and 2 literal slots >0x35 TIF> >0x33 TIF>
 >0x33 TIF> >0x35 TIF> >0x35 TIF> >0x35 TIF> >0x33 TIF> >0x33 TIF> >0x35 TIF> >0x33 TIF> >0x33 TIF> >0x35 TIF> >0x33 TIF> >0x33 TIF>Found Cortex-M3 r1p1, Little endian. >0x33 TIF>  returns 0x1BA01477 (0027ms, 0991ms total)
T2584 001:052 JLINK_GetDLLVersion()  returns 44001 (0000ms, 1018ms total)
T2584 001:053 JLINK_CORE_GetFound()  returns 0x30000FF (0000ms, 1019ms total)
T2584 001:055 JLINK_ReadMem (0xE00FF000, 0x0020 Bytes, ...) -- CPU is running -- CPU_ReadMem(32 bytes @ 0xE00FF000) -- Data:  03 F0 F0 FF 03 20 F0 FF 03 30 F0 FF 03 10 F0 FF ...  returns 0x00 (0001ms, 1019ms total)
T2584 001:057 JLINK_ReadMem (0xE000EFF0, 0x0010 Bytes, ...) -- CPU is running -- CPU_ReadMem(16 bytes @ 0xE000EFF0) -- Data:  0D 00 00 00 E0 00 00 00 05 00 00 00 B1 00 00 00  returns 0x00 (0000ms, 1020ms total)
T2584 001:058 JLINK_ReadMem (0xE000EFD0, 0x0020 Bytes, ...) -- CPU is running -- CPU_ReadMem(32 bytes @ 0xE000EFD0) -- Data:  04 00 00 00 00 00 00 00 00 00 00 00 00 00 00 00 ...  returns 0x00 (0001ms, 1021ms total)
T2584 001:059 JLINK_ReadMem (0xE0001FF0, 0x0010 Bytes, ...) -- CPU is running -- CPU_ReadMem(16 bytes @ 0xE0001FF0) -- Data:  0D 00 00 00 E0 00 00 00 05 00 00 00 B1 00 00 00  returns 0x00 (0001ms, 1022ms total)
T2584 001:060 JLINK_ReadMem (0xE0001FD0, 0x0020 Bytes, ...) -- CPU is running -- CPU_ReadMem(32 bytes @ 0xE0001FD0) -- Data:  04 00 00 00 00 00 00 00 00 00 00 00 00 00 00 00 ...  returns 0x00 (0001ms, 1023ms total)
T2584 001:061 JLINK_ReadMem (0xE0002FF0, 0x0010 Bytes, ...) -- CPU is running -- CPU_ReadMem(16 bytes @ 0xE0002FF0) -- Data:  0D 00 00 00 E0 00 00 00 05 00 00 00 B1 00 00 00  returns 0x00 (0001ms, 1024ms total)
T2584 001:062 JLINK_ReadMem (0xE0002FD0, 0x0020 Bytes, ...) -- CPU is running -- CPU_ReadMem(32 bytes @ 0xE0002FD0) -- Data:  04 00 00 00 00 00 00 00 00 00 00 00 00 00 00 00 ...  returns 0x00 (0001ms, 1025ms total)
T2584 001:063 JLINK_ReadMem (0xE0000FF0, 0x0010 Bytes, ...) -- CPU is running -- CPU_ReadMem(16 bytes @ 0xE0000FF0) -- Data:  0D 00 00 00 E0 00 00 00 05 00 00 00 B1 00 00 00  returns 0x00 (0001ms, 1026ms total)
T2584 001:064 JLINK_ReadMem (0xE0000FD0, 0x0020 Bytes, ...) -- CPU is running -- CPU_ReadMem(32 bytes @ 0xE0000FD0) -- Data:  04 00 00 00 00 00 00 00 00 00 00 00 00 00 00 00 ...  returns 0x00 (0002ms, 1027ms total)
T2584 001:066 JLINK_ReadMem (0xE0040FF0, 0x0010 Bytes, ...) -- CPU is running -- CPU_ReadMem(16 bytes @ 0xE0040FF0) -- Data:  0D 00 00 00 90 00 00 00 05 00 00 00 B1 00 00 00  returns 0x00 (0001ms, 1029ms total)
T2584 001:067 JLINK_ReadMem (0xE0040FD0, 0x0020 Bytes, ...) -- CPU is running -- CPU_ReadMem(32 bytes @ 0xE0040FD0) -- Data:  04 00 00 00 00 00 00 00 00 00 00 00 00 00 00 00 ...  returns 0x00 (0001ms, 1030ms total)
T2584 001:068 JLINK_ReadMem (0xE0041FF0, 0x0010 Bytes, ...) -- CPU is running -- CPU_ReadMem(16 bytes @ 0xE0041FF0) -- Data:  0D 00 00 00 90 00 00 00 05 00 00 00 B1 00 00 00  returns 0x00 (0001ms, 1031ms total)
T2584 001:069 JLINK_ReadMem (0xE0041FD0, 0x0020 Bytes, ...) -- CPU is running -- CPU_ReadMem(32 bytes @ 0xE0041FD0) -- Data:  04 00 00 00 00 00 00 00 00 00 00 00 00 00 00 00 ...  returns 0x00 (0001ms, 1032ms total)
T2584 001:070 JLINK_ReadMemU32(0xE000ED00, 0x0001 Items, ...) -- CPU is running -- CPU_ReadMem(4 bytes @ 0xE000ED00) -- Data:  31 C2 1F 41  returns 0x01 (0001ms, 1033ms total)
T2584 001:071 JLINK_SetResetType(JLINKARM_RESET_TYPE_NORMAL)  returns JLINKARM_RESET_TYPE_NORMAL (0000ms, 1034ms total)
T2584 001:071 JLINK_Reset() >0x108 TIF>Found SWD-DP with ID 0x1BA01477 >0x33 TIF> >0x33 TIF> >0x35 TIF> >0x33 TIF> >0x35 TIF> >0x33 TIF> >0x33 TIF> >0x35 TIF> >0x33 TIF> >0x33 TIF> >0x35 TIF> >0x33 TIF> >0x33 TIF> >0x35 TIF> >0x33 TIF> >0x33 TIF> >0x35 TIF> >0x35 TIF> >0x35 TIF> >0x33 TIF> >0x33 TIF> >0x35 TIF> >0x33 TIF> >0x33 TIF> >0x33 TIF>TPIU fitted.ETM fitted. >0x35 TIF> >0x33 TIF> >0x33 TIF> >0x35 TIF> >0x33 TIF> >0x33 TIF>  FPUnit: 6 code (BP) slots and 2 literal slots >0x35 TIF> >0x33 TIF>
 >0x33 TIF> >0x35 TIF> >0x33 TIF> >0x33 TIF> >0x35 TIF> >0x33 TIF> >0x33 TIF> >0x35 TIF> >0x33 TIF> >0x33 TIF>Found Cortex-M3 r1p1, Little endian. -- CPU is running -- CPU_WriteMem(4 bytes @ 0xE000EDF0) -- CPU is running -- CPU_WriteMem(4 bytes @ 0xE000EDFC) >0x35 TIF> -- CPU is running -- CPU_WriteMem(4 bytes @ 0xE000ED0C) -- CPU is running -- CPU_ReadMem(4 bytes @ 0xE000EDF0) -- CPU is running -- CPU_ReadMem(4 bytes @ 0xE000EDF0) -- CPU is running -- CPU_WriteMem(4 bytes @ 0xE000EDF0) -- CPU is running
 -- CPU_WriteMem(4 bytes @ 0xE000EDFC) -- CPU is running -- CPU_ReadMem(4 bytes @ 0xE000EDF0) (0043ms, 1034ms total)
T2584 001:114 JLINK_Halt()  returns 0x00 (0000ms, 1077ms total)
T2584 001:114 JLINK_IsHalted()  returns TRUE (0000ms, 1077ms total)
T2584 001:114 JLINK_ReadMemU32(0xE000EDF0, 0x0001 Items, ...) -- CPU_ReadMem(4 bytes @ 0xE000EDF0) -- Data:  03 00 03 00  returns 0x01 (0001ms, 1077ms total)
T2584 001:115 JLINK_WriteU32(0xE000EDF0, 0xA05F0003) -- CPU_WriteMem(4 bytes @ 0xE000EDF0)  returns 0x00 (0001ms, 1078ms total)
T2584 001:116 JLINK_WriteU32(0xE000EDFC, 0x01000000) -- CPU_WriteMem(4 bytes @ 0xE000EDFC)  returns 0x00 (0001ms, 1079ms total)
T2584 001:125 JLINK_GetHWStatus(...)  returns 0x00 (0001ms, 1080ms total)
T2584 001:132 JLINK_GetNumBPUnits(Type = 0xFFFFFF00)  returns 0x06 (0000ms, 1081ms total)
T2584 001:132 JLINK_GetNumBPUnits(Type = 0xF0)  returns 0x2000 (0000ms, 1081ms total)
T2584 001:132 JLINK_GetNumWPUnits()  returns 0x04 (0000ms, 1081ms total)
T2584 001:140 JLINK_GetSpeed()  returns 0xFA0 (0000ms, 1081ms total)
T2584 001:147 JLINK_ReadMemU32(0xE000E004, 0x0001 Items, ...) -- CPU_ReadMem(4 bytes @ 0xE000E004) -- Data:  02 00 00 00  returns 0x01 (0001ms, 1081ms total)
T2584 001:148 JLINK_ReadMemU32(0xE000E004, 0x0001 Items, ...) -- CPU_ReadMem(4 bytes @ 0xE000E004) -- Data:  02 00 00 00  returns 0x01 (0001ms, 1082ms total)
T2584 001:149 JLINK_WriteMem(0xE0001000, 0x001C Bytes, ...) -- Data:  01 00 00 00 00 00 00 00 00 00 00 00 00 00 00 00 ... -- CPU_WriteMem(28 bytes @ 0xE0001000)  returns 0x1C (0001ms, 1083ms total)
T2584 001:150 JLINK_ReadMem (0xE0001000, 0x001C Bytes, ...) -- CPU_ReadMem(28 bytes @ 0xE0001000) -- Data:  01 00 00 40 00 00 00 00 00 00 00 00 00 00 00 00 ...  returns 0x00 (0002ms, 1084ms total)
T2584 001:152 JLINK_Halt()  returns 0x00 (0000ms, 1086ms total)
T2584 001:152 JLINK_IsHalted()  returns TRUE (0000ms, 1086ms total)
T2584 001:155 JLINK_WriteMem(0x20000000, 0x0164 Bytes, ...) -- Data:  00 BE 0A E0 0D 78 2D 06 68 40 08 24 40 00 00 D3 ... -- CPU_WriteMem(356 bytes @ 0x20000000)  returns 0x164 (0005ms, 1086ms total)
T2584 001:160 JLINK_WriteReg(R0, 0x08000000)  returns 0x00 (0001ms, 1091ms total)
T2584 001:161 JLINK_WriteReg(R1, 0x00B71B00)  returns 0x00 (0000ms, 1092ms total)
T2584 001:161 JLINK_WriteReg(R2, 0x00000001)  returns 0x00 (0001ms, 1092ms total)
T2584 001:162 JLINK_WriteReg(R3, 0x00000000)  returns 0x00 (0000ms, 1093ms total)
T2584 001:162 JLINK_WriteReg(R4, 0x00000000)  returns 0x00 (0000ms, 1093ms total)
T2584 001:163 JLINK_WriteReg(R5, 0x00000000)  returns 0x00 (0000ms, 1094ms total)
T2584 001:163 JLINK_WriteReg(R6, 0x00000000)  returns 0x00 (0000ms, 1094ms total)
T2584 001:163 JLINK_WriteReg(R7, 0x00000000)  returns 0x00 (0001ms, 1094ms total)
T2584 001:164 JLINK_WriteReg(R8, 0x00000000)  returns 0x00 (0000ms, 1095ms total)
T2584 001:164 JLINK_WriteReg(R9, 0x20000160)  returns 0x00 (0000ms, 1095ms total)
T2584 001:164 JLINK_WriteReg(R10, 0x00000000)  returns 0x00 (0000ms, 1095ms total)
T2584 001:165 JLINK_WriteReg(R11, 0x00000000)  returns 0x00 (0000ms, 1096ms total)
T2584 001:165 JLINK_WriteReg(R12, 0x00000000)  returns 0x00 (0000ms, 1096ms total)
T2584 001:165 JLINK_WriteReg(R13, 0x20001000)  returns 0x00 (0000ms, 1096ms total)
T2584 001:165 JLINK_WriteReg(R14, 0x20000001)  returns 0x00 (0000ms, 1096ms total)
T2584 001:165 JLINK_WriteReg(R15, 0x20000038)  returns 0x00 (0000ms, 1096ms total)
T2584 001:166 JLINK_WriteReg(XPSR, 0x01000000)  returns 0x00 (0000ms, 1097ms total)
T2584 001:166 JLINK_WriteReg(MSP, 0x20001000)  returns 0x00 (0000ms, 1097ms total)
T2584 001:166 JLINK_WriteReg(PSP, 0x20001000)  returns 0x00 (0000ms, 1097ms total)
T2584 001:166 JLINK_WriteReg(CFBP, 0x00000000)  returns 0x00 (0000ms, 1097ms total)
T2584 001:166 JLINK_SetBPEx(Addr = 0x20000000, Type = 0xFFFFFFF2) -- CPU_ReadMem(2 bytes @ 0x20000000)  returns 0x00000001 (0001ms, 1097ms total)
T2584 001:167 JLINK_Go() -- CPU_WriteMem(2 bytes @ 0x20000000) -- CPU_WriteMem(4 bytes @ 0xE0002008) -- CPU_WriteMem(4 bytes @ 0xE000200C) -- CPU_WriteMem(4 bytes @ 0xE0002010) -- CPU_WriteMem(4 bytes @ 0xE0002014) -- CPU_WriteMem(4 bytes @ 0xE0002018) -- CPU_WriteMem(4 bytes @ 0xE000201C) (0010ms, 1098ms total)
T2584 001:177 JLINK_IsHalted() -- CPU_ReadMem(2 bytes @ 0x20000000)  returns TRUE (0004ms, 1108ms total)
T2584 001:181 JLINK_ReadReg(R15)  returns 0x20000000 (0000ms, 1108ms total)
T2584 001:181 JLINK_ClrBPEx(BPHandle = 0x00000001)  returns 0x00 (0001ms, 1108ms total)
T2584 001:182 JLINK_ReadReg(R0)  returns 0x00000000 (0000ms, 1109ms total)
T2584 001:183 JLINK_WriteReg(R0, 0x08000000)  returns 0x00 (0001ms, 1109ms total)
T2584 001:184 JLINK_WriteReg(R1, 0x00000800)  returns 0x00 (0000ms, 1110ms total)
T2584 001:184 JLINK_WriteReg(R2, 0x000000FF)  returns 0x00 (0000ms, 1110ms total)
T2584 001:184 JLINK_WriteReg(R3, 0x00000000)  returns 0x00 (0000ms, 1110ms total)
T2584 001:184 JLINK_WriteReg(R4, 0x00000000)  returns 0x00 (0000ms, 1110ms total)
T2584 001:184 JLINK_WriteReg(R5, 0x00000000)  returns 0x00 (0001ms, 1110ms total)
T2584 001:185 JLINK_WriteReg(R6, 0x00000000)  returns 0x00 (0000ms, 1111ms total)
T2584 001:185 JLINK_WriteReg(R7, 0x00000000)  returns 0x00 (0000ms, 1111ms total)
T2584 001:185 JLINK_WriteReg(R8, 0x00000000)  returns 0x00 (0000ms, 1111ms total)
T2584 001:185 JLINK_WriteReg(R9, 0x20000160)  returns 0x00 (0000ms, 1111ms total)
T2584 001:185 JLINK_WriteReg(R10, 0x00000000)  returns 0x00 (0000ms, 1111ms total)
T2584 001:186 JLINK_WriteReg(R11, 0x00000000)  returns 0x00 (0000ms, 1112ms total)
T2584 001:186 JLINK_WriteReg(R12, 0x00000000)  returns 0x00 (0000ms, 1112ms total)
T2584 001:186 JLINK_WriteReg(R13, 0x20001000)  returns 0x00 (0000ms, 1112ms total)
T2584 001:186 JLINK_WriteReg(R14, 0x20000001)  returns 0x00 (0000ms, 1112ms total)
T2584 001:186 JLINK_WriteReg(R15, 0x20000020)  returns 0x00 (0000ms, 1112ms total)
T2584 001:187 JLINK_WriteReg(XPSR, 0x01000000)  returns 0x00 (0000ms, 1113ms total)
T2584 001:187 JLINK_WriteReg(MSP, 0x20001000)  returns 0x00 (0000ms, 1113ms total)
T2584 001:187 JLINK_WriteReg(PSP, 0x20001000)  returns 0x00 (0000ms, 1113ms total)
T2584 001:187 JLINK_WriteReg(CFBP, 0x00000000)  returns 0x00 (0000ms, 1113ms total)
T2584 001:187 JLINK_SetBPEx(Addr = 0x20000000, Type = 0xFFFFFFF2)  returns 0x00000002 (0000ms, 1113ms total)
T2584 001:187 JLINK_Go() -- CPU_WriteMem(4 bytes @ 0xE0002008) -- CPU_WriteMem(4 bytes @ 0xE000200C) -- CPU_WriteMem(4 bytes @ 0xE0002010) -- CPU_WriteMem(4 bytes @ 0xE0002014) -- CPU_WriteMem(4 bytes @ 0xE0002018) -- CPU_WriteMem(4 bytes @ 0xE000201C) (0009ms, 1113ms total)
T2584 001:196 JLINK_IsHalted() -- CPU_ReadMem(2 bytes @ 0x20000000)  returns TRUE (0005ms, 1122ms total)
T2584 001:201 JLINK_ReadReg(R15)  returns 0x20000000 (0001ms, 1122ms total)
T2584 001:202 JLINK_ClrBPEx(BPHandle = 0x00000002)  returns 0x00 (0000ms, 1123ms total)
T2584 001:202 JLINK_ReadReg(R0)  returns 0x00000001 (0000ms, 1123ms total)
T2584 001:203 JLINK_WriteReg(R0, 0x08000000)  returns 0x00 (0000ms, 1124ms total)
T2584 001:203 JLINK_WriteReg(R1, 0x00000800)  returns 0x00 (0000ms, 1124ms total)
T2584 001:203 JLINK_WriteReg(R2, 0x000000FF)  returns 0x00 (0000ms, 1124ms total)
T2584 001:203 JLINK_WriteReg(R3, 0x00000000)  returns 0x00 (0000ms, 1124ms total)
T2584 001:203 JLINK_WriteReg(R4, 0x00000000)  returns 0x00 (0001ms, 1124ms total)
T2584 001:204 JLINK_WriteReg(R5, 0x00000000)  returns 0x00 (0000ms, 1125ms total)
T2584 001:204 JLINK_WriteReg(R6, 0x00000000)  returns 0x00 (0001ms, 1125ms total)
T2584 001:205 JLINK_WriteReg(R7, 0x00000000)  returns 0x00 (0000ms, 1126ms total)
T2584 001:205 JLINK_WriteReg(R8, 0x00000000)  returns 0x00 (0001ms, 1126ms total)
T2584 001:206 JLINK_WriteReg(R9, 0x20000160)  returns 0x00 (0000ms, 1127ms total)
T2584 001:206 JLINK_WriteReg(R10, 0x00000000)  returns 0x00 (0001ms, 1127ms total)
T2584 001:207 JLINK_WriteReg(R11, 0x00000000)  returns 0x00 (0000ms, 1128ms total)
T2584 001:207 JLINK_WriteReg(R12, 0x00000000)  returns 0x00 (0000ms, 1128ms total)
T2584 001:208 JLINK_WriteReg(R13, 0x20001000)  returns 0x00 (0000ms, 1129ms total)
T2584 001:208 JLINK_WriteReg(R14, 0x20000001)  returns 0x00 (0000ms, 1129ms total)
T2584 001:208 JLINK_WriteReg(R15, 0x200000B6)  returns 0x00 (0001ms, 1129ms total)
T2584 001:209 JLINK_WriteReg(XPSR, 0x01000000)  returns 0x00 (0000ms, 1130ms total)
T2584 001:209 JLINK_WriteReg(MSP, 0x20001000)  returns 0x00 (0001ms, 1130ms total)
T2584 001:210 JLINK_WriteReg(PSP, 0x20001000)  returns 0x00 (0000ms, 1131ms total)
T2584 001:210 JLINK_WriteReg(CFBP, 0x00000000)  returns 0x00 (0001ms, 1131ms total)
T2584 001:211 JLINK_SetBPEx(Addr = 0x20000000, Type = 0xFFFFFFF2)  returns 0x00000003 (0000ms, 1132ms total)
T2584 001:211 JLINK_Go() -- CPU_WriteMem(4 bytes @ 0xE0002008) -- CPU_WriteMem(4 bytes @ 0xE000200C) -- CPU_WriteMem(4 bytes @ 0xE0002010) -- CPU_WriteMem(4 bytes @ 0xE0002014) -- CPU_WriteMem(4 bytes @ 0xE0002018) -- CPU_WriteMem(4 bytes @ 0xE000201C) (0007ms, 1132ms total)
T2584 001:218 JLINK_IsHalted()  returns FALSE (0002ms, 1139ms total)
T2584 001:316 JLINK_IsHalted() -- CPU_ReadMem(2 bytes @ 0x20000000)  returns TRUE (0004ms, 1139ms total)
T2584 001:320 JLINK_ReadReg(R15)  returns 0x20000000 (0000ms, 1139ms total)
T2584 001:320 JLINK_ClrBPEx(BPHandle = 0x00000003)  returns 0x00 (0000ms, 1139ms total)
T2584 001:320 JLINK_ReadReg(R0)  returns 0x00000000 (0000ms, 1139ms total)
T2584 001:321 JLINK_WriteReg(R0, 0x08000800)  returns 0x00 (0000ms, 1139ms total)
T2584 001:321 JLINK_WriteReg(R1, 0x00000800)  returns 0x00 (0000ms, 1139ms total)
T2584 001:321 JLINK_WriteReg(R2, 0x000000FF)  returns 0x00 (0001ms, 1139ms total)
T2584 001:322 JLINK_WriteReg(R3, 0x00000000)  returns 0x00 (0000ms, 1140ms total)
T2584 001:322 JLINK_WriteReg(R4, 0x00000000)  returns 0x00 (0000ms, 1140ms total)
T2584 001:322 JLINK_WriteReg(R5, 0x00000000)  returns 0x00 (0000ms, 1140ms total)
T2584 001:322 JLINK_WriteReg(R6, 0x00000000)  returns 0x00 (0000ms, 1140ms total)
T2584 001:322 JLINK_WriteReg(R7, 0x00000000)  returns 0x00 (0001ms, 1140ms total)
T2584 001:323 JLINK_WriteReg(R8, 0x00000000)  returns 0x00 (0000ms, 1141ms total)
T2584 001:323 JLINK_WriteReg(R9, 0x20000160)  returns 0x00 (0000ms, 1141ms total)
T2584 001:323 JLINK_WriteReg(R10, 0x00000000)  returns 0x00 (0000ms, 1141ms total)
T2584 001:323 JLINK_WriteReg(R11, 0x00000000)  returns 0x00 (0000ms, 1141ms total)
T2584 001:323 JLINK_WriteReg(R12, 0x00000000)  returns 0x00 (0001ms, 1141ms total)
T2584 001:324 JLINK_WriteReg(R13, 0x20001000)  returns 0x00 (0000ms, 1142ms total)
T2584 001:324 JLINK_WriteReg(R14, 0x20000001)  returns 0x00 (0000ms, 1142ms total)
T2584 001:324 JLINK_WriteReg(R15, 0x20000020)  returns 0x00 (0000ms, 1142ms total)
T2584 001:324 JLINK_WriteReg(XPSR, 0x01000000)  returns 0x00 (0000ms, 1142ms total)
T2584 001:324 JLINK_WriteReg(MSP, 0x20001000)  returns 0x00 (0001ms, 1142ms total)
T2584 001:325 JLINK_WriteReg(PSP, 0x20001000)  returns 0x00 (0000ms, 1143ms total)
T2584 001:325 JLINK_WriteReg(CFBP, 0x00000000)  returns 0x00 (0000ms, 1143ms total)
T2584 001:325 JLINK_SetBPEx(Addr = 0x20000000, Type = 0xFFFFFFF2)  returns 0x00000004 (0000ms, 1143ms total)
T2584 001:325 JLINK_Go() -- CPU_WriteMem(4 bytes @ 0xE0002008) -- CPU_WriteMem(4 bytes @ 0xE000200C) -- CPU_WriteMem(4 bytes @ 0xE0002010) -- CPU_WriteMem(4 bytes @ 0xE0002014) -- CPU_WriteMem(4 bytes @ 0xE0002018) -- CPU_WriteMem(4 bytes @ 0xE000201C) (0006ms, 1143ms total)
T2584 001:331 JLINK_IsHalted() -- CPU_ReadMem(2 bytes @ 0x20000000)  returns TRUE (0004ms, 1149ms total)
T2584 001:335 JLINK_ReadReg(R15)  returns 0x20000000 (0001ms, 1149ms total)
T2584 001:336 JLINK_ClrBPEx(BPHandle = 0x00000004)  returns 0x00 (0000ms, 1150ms total)
T2584 001:336 JLINK_ReadReg(R0)  returns 0x00000001 (0000ms, 1150ms total)
T2584 001:336 JLINK_WriteReg(R0, 0x08000800)  returns 0x00 (0000ms, 1150ms total)
T2584 001:336 JLINK_WriteReg(R1, 0x00000800)  returns 0x00 (0000ms, 1150ms total)
T2584 001:336 JLINK_WriteReg(R2, 0x000000FF)  returns 0x00 (0001ms, 1150ms total)
T2584 001:337 JLINK_WriteReg(R3, 0x00000000)  returns 0x00 (0000ms, 1151ms total)
T2584 001:337 JLINK_WriteReg(R4, 0x00000000)  returns 0x00 (0000ms, 1151ms total)
T2584 001:337 JLINK_WriteReg(R5, 0x00000000)  returns 0x00 (0000ms, 1151ms total)
T2584 001:337 JLINK_WriteReg(R6, 0x00000000)  returns 0x00 (0000ms, 1151ms total)
T2584 001:337 JLINK_WriteReg(R7, 0x00000000)  returns 0x00 (0001ms, 1151ms total)
T2584 001:338 JLINK_WriteReg(R8, 0x00000000)  returns 0x00 (0000ms, 1152ms total)
T2584 001:338 JLINK_WriteReg(R9, 0x20000160)  returns 0x00 (0000ms, 1152ms total)
T2584 001:338 JLINK_WriteReg(R10, 0x00000000)  returns 0x00 (0000ms, 1152ms total)
T2584 001:338 JLINK_WriteReg(R11, 0x00000000)  returns 0x00 (0001ms, 1152ms total)
T2584 001:339 JLINK_WriteReg(R12, 0x00000000)  returns 0x00 (0000ms, 1153ms total)
T2584 001:339 JLINK_WriteReg(R13, 0x20001000)  returns 0x00 (0000ms, 1153ms total)
T2584 001:339 JLINK_WriteReg(R14, 0x20000001)  returns 0x00 (0000ms, 1153ms total)
T2584 001:339 JLINK_WriteReg(R15, 0x200000B6)  returns 0x00 (0000ms, 1153ms total)
T2584 001:339 JLINK_WriteReg(XPSR, 0x01000000)  returns 0x00 (0001ms, 1153ms total)
T2584 001:340 JLINK_WriteReg(MSP, 0x20001000)  returns 0x00 (0000ms, 1154ms total)
T2584 001:340 JLINK_WriteReg(PSP, 0x20001000)  returns 0x00 (0000ms, 1154ms total)
T2584 001:340 JLINK_WriteReg(CFBP, 0x00000000)  returns 0x00 (0000ms, 1154ms total)
T2584 001:340 JLINK_SetBPEx(Addr = 0x20000000, Type = 0xFFFFFFF2)  returns 0x00000005 (0000ms, 1154ms total)
T2584 001:340 JLINK_Go() -- CPU_WriteMem(4 bytes @ 0xE0002008) -- CPU_WriteMem(4 bytes @ 0xE000200C) -- CPU_WriteMem(4 bytes @ 0xE0002010) -- CPU_WriteMem(4 bytes @ 0xE0002014) -- CPU_WriteMem(4 bytes @ 0xE0002018) -- CPU_WriteMem(4 bytes @ 0xE000201C) (0006ms, 1154ms total)
T2584 001:346 JLINK_IsHalted()  returns FALSE (0001ms, 1160ms total)
T2584 001:354 JLINK_IsHalted()  returns FALSE (0000ms, 1160ms total)
T2584 001:356 JLINK_IsHalted()  returns FALSE (0000ms, 1160ms total)
T2584 001:358 JLINK_IsHalted()  returns FALSE (0000ms, 1160ms total)
T2584 001:360 JLINK_IsHalted()  returns FALSE (0000ms, 1160ms total)
T2584 001:362 JLINK_IsHalted()  returns FALSE (0000ms, 1160ms total)
T2584 001:364 JLINK_IsHalted()  returns FALSE (0000ms, 1160ms total)
T2584 001:366 JLINK_IsHalted()  returns FALSE (0000ms, 1160ms total)
T2584 001:368 JLINK_IsHalted()  returns FALSE (0000ms, 1160ms total)
T2584 001:370 JLINK_IsHalted() -- CPU_ReadMem(2 bytes @ 0x20000000)  returns TRUE (0004ms, 1160ms total)
T2584 001:374 JLINK_ReadReg(R15)  returns 0x20000000 (0000ms, 1160ms total)
T2584 001:374 JLINK_ClrBPEx(BPHandle = 0x00000005)  returns 0x00 (0000ms, 1160ms total)
T2584 001:374 JLINK_ReadReg(R0)  returns 0x00000000 (0000ms, 1160ms total)
T2584 001:375 JLINK_WriteReg(R0, 0x08001000)  returns 0x00 (0000ms, 1160ms total)
T2584 001:375 JLINK_WriteReg(R1, 0x00000800)  returns 0x00 (0000ms, 1160ms total)
T2584 001:375 JLINK_WriteReg(R2, 0x000000FF)  returns 0x00 (0001ms, 1160ms total)
T2584 001:376 JLINK_WriteReg(R3, 0x00000000)  returns 0x00 (0000ms, 1161ms total)
T2584 001:376 JLINK_WriteReg(R4, 0x00000000)  returns 0x00 (0000ms, 1161ms total)
T2584 001:376 JLINK_WriteReg(R5, 0x00000000)  returns 0x00 (0000ms, 1161ms total)
T2584 001:376 JLINK_WriteReg(R6, 0x00000000)  returns 0x00 (0000ms, 1161ms total)
T2584 001:376 JLINK_WriteReg(R7, 0x00000000)  returns 0x00 (0001ms, 1161ms total)
T2584 001:377 JLINK_WriteReg(R8, 0x00000000)  returns 0x00 (0000ms, 1162ms total)
T2584 001:377 JLINK_WriteReg(R9, 0x20000160)  returns 0x00 (0000ms, 1162ms total)
T2584 001:377 JLINK_WriteReg(R10, 0x00000000)  returns 0x00 (0000ms, 1162ms total)
T2584 001:377 JLINK_WriteReg(R11, 0x00000000)  returns 0x00 (0000ms, 1162ms total)
T2584 001:377 JLINK_WriteReg(R12, 0x00000000)  returns 0x00 (0001ms, 1162ms total)
T2584 001:378 JLINK_WriteReg(R13, 0x20001000)  returns 0x00 (0000ms, 1163ms total)
T2584 001:378 JLINK_WriteReg(R14, 0x20000001)  returns 0x00 (0000ms, 1163ms total)
T2584 001:378 JLINK_WriteReg(R15, 0x20000020)  returns 0x00 (0000ms, 1163ms total)
T2584 001:378 JLINK_WriteReg(XPSR, 0x01000000)  returns 0x00 (0000ms, 1163ms total)
T2584 001:378 JLINK_WriteReg(MSP, 0x20001000)  returns 0x00 (0001ms, 1163ms total)
T2584 001:379 JLINK_WriteReg(PSP, 0x20001000)  returns 0x00 (0000ms, 1164ms total)
T2584 001:379 JLINK_WriteReg(CFBP, 0x00000000)  returns 0x00 (0000ms, 1164ms total)
T2584 001:379 JLINK_SetBPEx(Addr = 0x20000000, Type = 0xFFFFFFF2)  returns 0x00000006 (0000ms, 1164ms total)
T2584 001:379 JLINK_Go() -- CPU_WriteMem(4 bytes @ 0xE0002008) -- CPU_WriteMem(4 bytes @ 0xE000200C) -- CPU_WriteMem(4 bytes @ 0xE0002010) -- CPU_WriteMem(4 bytes @ 0xE0002014) -- CPU_WriteMem(4 bytes @ 0xE0002018) -- CPU_WriteMem(4 bytes @ 0xE000201C) (0007ms, 1164ms total)
T2584 001:386 JLINK_IsHalted() -- CPU_ReadMem(2 bytes @ 0x20000000)  returns TRUE (0005ms, 1171ms total)
T2584 001:391 JLINK_ReadReg(R15)  returns 0x20000000 (0000ms, 1171ms total)
T2584 001:391 JLINK_ClrBPEx(BPHandle = 0x00000006)  returns 0x00 (0000ms, 1171ms total)
T2584 001:391 JLINK_ReadReg(R0)  returns 0x00000001 (0000ms, 1171ms total)
T2584 001:391 JLINK_WriteReg(R0, 0x08001000)  returns 0x00 (0000ms, 1171ms total)
T2584 001:391 JLINK_WriteReg(R1, 0x00000800)  returns 0x00 (0001ms, 1171ms total)
T2584 001:392 JLINK_WriteReg(R2, 0x000000FF)  returns 0x00 (0000ms, 1172ms total)
T2584 001:392 JLINK_WriteReg(R3, 0x00000000)  returns 0x00 (0000ms, 1172ms total)
T2584 001:392 JLINK_WriteReg(R4, 0x00000000)  returns 0x00 (0000ms, 1172ms total)
T2584 001:392 JLINK_WriteReg(R5, 0x00000000)  returns 0x00 (0000ms, 1172ms total)
T2584 001:392 JLINK_WriteReg(R6, 0x00000000)  returns 0x00 (0001ms, 1172ms total)
T2584 001:393 JLINK_WriteReg(R7, 0x00000000)  returns 0x00 (0000ms, 1173ms total)
T2584 001:393 JLINK_WriteReg(R8, 0x00000000)  returns 0x00 (0000ms, 1173ms total)
T2584 001:393 JLINK_WriteReg(R9, 0x20000160)  returns 0x00 (0000ms, 1173ms total)
T2584 001:393 JLINK_WriteReg(R10, 0x00000000)  returns 0x00 (0000ms, 1173ms total)
T2584 001:393 JLINK_WriteReg(R11, 0x00000000)  returns 0x00 (0001ms, 1173ms total)
T2584 001:394 JLINK_WriteReg(R12, 0x00000000)  returns 0x00 (0000ms, 1174ms total)
T2584 001:394 JLINK_WriteReg(R13, 0x20001000)  returns 0x00 (0000ms, 1174ms total)
T2584 001:394 JLINK_WriteReg(R14, 0x20000001)  returns 0x00 (0000ms, 1174ms total)
T2584 001:394 JLINK_WriteReg(R15, 0x200000B6)  returns 0x00 (0000ms, 1174ms total)
T2584 001:394 JLINK_WriteReg(XPSR, 0x01000000)  returns 0x00 (0001ms, 1174ms total)
T2584 001:395 JLINK_WriteReg(MSP, 0x20001000)  returns 0x00 (0000ms, 1175ms total)
T2584 001:395 JLINK_WriteReg(PSP, 0x20001000)  returns 0x00 (0000ms, 1175ms total)
T2584 001:395 JLINK_WriteReg(CFBP, 0x00000000)  returns 0x00 (0000ms, 1175ms total)
T2584 001:395 JLINK_SetBPEx(Addr = 0x20000000, Type = 0xFFFFFFF2)  returns 0x00000007 (0000ms, 1175ms total)
T2584 001:396 JLINK_Go() -- CPU_WriteMem(4 bytes @ 0xE0002008) -- CPU_WriteMem(4 bytes @ 0xE000200C) -- CPU_WriteMem(4 bytes @ 0xE0002010) -- CPU_WriteMem(4 bytes @ 0xE0002014) -- CPU_WriteMem(4 bytes @ 0xE0002018) -- CPU_WriteMem(4 bytes @ 0xE000201C) (0006ms, 1176ms total)
T2584 001:402 JLINK_IsHalted()  returns FALSE (0002ms, 1182ms total)
T2584 001:407 JLINK_IsHalted()  returns FALSE (0000ms, 1182ms total)
T2584 001:409 JLINK_IsHalted()  returns FALSE (0001ms, 1182ms total)
T2584 001:412 JLINK_IsHalted()  returns FALSE (0001ms, 1182ms total)
T2584 001:415 JLINK_IsHalted()  returns FALSE (0000ms, 1182ms total)
T2584 001:417 JLINK_IsHalted()  returns FALSE (0001ms, 1182ms total)
T2584 001:420 JLINK_IsHalted()  returns FALSE (0001ms, 1182ms total)
T2584 001:422 JLINK_IsHalted()  returns FALSE (0001ms, 1182ms total)
T2584 001:424 JLINK_IsHalted()  returns FALSE (0001ms, 1182ms total)
T2584 001:427 JLINK_IsHalted() -- CPU_ReadMem(2 bytes @ 0x20000000)  returns TRUE (0004ms, 1182ms total)
T2584 001:431 JLINK_ReadReg(R15)  returns 0x20000000 (0000ms, 1182ms total)
T2584 001:431 JLINK_ClrBPEx(BPHandle = 0x00000007)  returns 0x00 (0000ms, 1182ms total)
T2584 001:431 JLINK_ReadReg(R0)  returns 0x00000000 (0000ms, 1182ms total)
T2584 001:432 JLINK_WriteReg(R0, 0x08001800)  returns 0x00 (0000ms, 1182ms total)
T2584 001:432 JLINK_WriteReg(R1, 0x00000800)  returns 0x00 (0000ms, 1182ms total)
T2584 001:432 JLINK_WriteReg(R2, 0x000000FF)  returns 0x00 (0000ms, 1182ms total)
T2584 001:432 JLINK_WriteReg(R3, 0x00000000)  returns 0x00 (0001ms, 1182ms total)
T2584 001:433 JLINK_WriteReg(R4, 0x00000000)  returns 0x00 (0000ms, 1183ms total)
T2584 001:433 JLINK_WriteReg(R5, 0x00000000)  returns 0x00 (0000ms, 1183ms total)
T2584 001:433 JLINK_WriteReg(R6, 0x00000000)  returns 0x00 (0000ms, 1183ms total)
T2584 001:433 JLINK_WriteReg(R7, 0x00000000)  returns 0x00 (0000ms, 1183ms total)
T2584 001:433 JLINK_WriteReg(R8, 0x00000000)  returns 0x00 (0001ms, 1183ms total)
T2584 001:434 JLINK_WriteReg(R9, 0x20000160)  returns 0x00 (0000ms, 1184ms total)
T2584 001:434 JLINK_WriteReg(R10, 0x00000000)  returns 0x00 (0000ms, 1184ms total)
T2584 001:434 JLINK_WriteReg(R11, 0x00000000)  returns 0x00 (0000ms, 1184ms total)
T2584 001:434 JLINK_WriteReg(R12, 0x00000000)  returns 0x00 (0000ms, 1184ms total)
T2584 001:434 JLINK_WriteReg(R13, 0x20001000)  returns 0x00 (0001ms, 1184ms total)
T2584 001:435 JLINK_WriteReg(R14, 0x20000001)  returns 0x00 (0000ms, 1185ms total)
T2584 001:435 JLINK_WriteReg(R15, 0x20000020)  returns 0x00 (0000ms, 1185ms total)
T2584 001:435 JLINK_WriteReg(XPSR, 0x01000000)  returns 0x00 (0000ms, 1185ms total)
T2584 001:435 JLINK_WriteReg(MSP, 0x20001000)  returns 0x00 (0001ms, 1185ms total)
T2584 001:436 JLINK_WriteReg(PSP, 0x20001000)  returns 0x00 (0000ms, 1186ms total)
T2584 001:436 JLINK_WriteReg(CFBP, 0x00000000)  returns 0x00 (0000ms, 1186ms total)
T2584 001:436 JLINK_SetBPEx(Addr = 0x20000000, Type = 0xFFFFFFF2)  returns 0x00000008 (0000ms, 1186ms total)
T2584 001:436 JLINK_Go() -- CPU_WriteMem(4 bytes @ 0xE0002008) -- CPU_WriteMem(4 bytes @ 0xE000200C) -- CPU_WriteMem(4 bytes @ 0xE0002010) -- CPU_WriteMem(4 bytes @ 0xE0002014) -- CPU_WriteMem(4 bytes @ 0xE0002018) -- CPU_WriteMem(4 bytes @ 0xE000201C) (0009ms, 1186ms total)
T2584 001:445 JLINK_IsHalted() -- CPU_ReadMem(2 bytes @ 0x20000000)  returns TRUE (0004ms, 1195ms total)
T2584 001:449 JLINK_ReadReg(R15)  returns 0x20000000 (0000ms, 1195ms total)
T2584 001:449 JLINK_ClrBPEx(BPHandle = 0x00000008)  returns 0x00 (0000ms, 1195ms total)
T2584 001:449 JLINK_ReadReg(R0)  returns 0x00000001 (0000ms, 1195ms total)
T2584 001:449 JLINK_WriteReg(R0, 0x08001800)  returns 0x00 (0001ms, 1195ms total)
T2584 001:450 JLINK_WriteReg(R1, 0x00000800)  returns 0x00 (0000ms, 1196ms total)
T2584 001:450 JLINK_WriteReg(R2, 0x000000FF)  returns 0x00 (0000ms, 1196ms total)
T2584 001:450 JLINK_WriteReg(R3, 0x00000000)  returns 0x00 (0000ms, 1196ms total)
T2584 001:450 JLINK_WriteReg(R4, 0x00000000)  returns 0x00 (0000ms, 1196ms total)
T2584 001:450 JLINK_WriteReg(R5, 0x00000000)  returns 0x00 (0001ms, 1196ms total)
T2584 001:451 JLINK_WriteReg(R6, 0x00000000)  returns 0x00 (0000ms, 1197ms total)
T2584 001:451 JLINK_WriteReg(R7, 0x00000000)  returns 0x00 (0000ms, 1197ms total)
T2584 001:451 JLINK_WriteReg(R8, 0x00000000)  returns 0x00 (0000ms, 1197ms total)
T2584 001:451 JLINK_WriteReg(R9, 0x20000160)  returns 0x00 (0000ms, 1197ms total)
T2584 001:451 JLINK_WriteReg(R10, 0x00000000)  returns 0x00 (0001ms, 1197ms total)
T2584 001:452 JLINK_WriteReg(R11, 0x00000000)  returns 0x00 (0000ms, 1198ms total)
T2584 001:452 JLINK_WriteReg(R12, 0x00000000)  returns 0x00 (0000ms, 1198ms total)
T2584 001:452 JLINK_WriteReg(R13, 0x20001000)  returns 0x00 (0000ms, 1198ms total)
T2584 001:452 JLINK_WriteReg(R14, 0x20000001)  returns 0x00 (0000ms, 1198ms total)
T2584 001:452 JLINK_WriteReg(R15, 0x200000B6)  returns 0x00 (0001ms, 1198ms total)
T2584 001:453 JLINK_WriteReg(XPSR, 0x01000000)  returns 0x00 (0000ms, 1199ms total)
T2584 001:453 JLINK_WriteReg(MSP, 0x20001000)  returns 0x00 (0000ms, 1199ms total)
T2584 001:453 JLINK_WriteReg(PSP, 0x20001000)  returns 0x00 (0000ms, 1199ms total)
T2584 001:453 JLINK_WriteReg(CFBP, 0x00000000)  returns 0x00 (0000ms, 1199ms total)
T2584 001:453 JLINK_SetBPEx(Addr = 0x20000000, Type = 0xFFFFFFF2)  returns 0x00000009 (0001ms, 1199ms total)
T2584 001:454 JLINK_Go() -- CPU_WriteMem(4 bytes @ 0xE0002008) -- CPU_WriteMem(4 bytes @ 0xE000200C) -- CPU_WriteMem(4 bytes @ 0xE0002010) -- CPU_WriteMem(4 bytes @ 0xE0002014) -- CPU_WriteMem(4 bytes @ 0xE0002018) -- CPU_WriteMem(4 bytes @ 0xE000201C) (0006ms, 1200ms total)
T2584 001:460 JLINK_IsHalted()  returns FALSE (0001ms, 1206ms total)
T2584 001:468 JLINK_IsHalted()  returns FALSE (0001ms, 1206ms total)
T2584 001:472 JLINK_IsHalted()  returns FALSE (0002ms, 1206ms total)
T2584 001:477 JLINK_IsHalted()  returns FALSE (0000ms, 1206ms total)
T2584 001:486 JLINK_IsHalted() -- CPU_ReadMem(2 bytes @ 0x20000000)  returns TRUE (0005ms, 1206ms total)
T2584 001:491 JLINK_ReadReg(R15)  returns 0x20000000 (0000ms, 1206ms total)
T2584 001:491 JLINK_ClrBPEx(BPHandle = 0x00000009)  returns 0x00 (0000ms, 1206ms total)
T2584 001:491 JLINK_ReadReg(R0)  returns 0x00000000 (0000ms, 1206ms total)
T2584 001:492 JLINK_WriteReg(R0, 0x08002000)  returns 0x00 (0000ms, 1206ms total)
T2584 001:492 JLINK_WriteReg(R1, 0x00000800)  returns 0x00 (0000ms, 1206ms total)
T2584 001:492 JLINK_WriteReg(R2, 0x000000FF)  returns 0x00 (0000ms, 1206ms total)
T2584 001:492 JLINK_WriteReg(R3, 0x00000000)  returns 0x00 (0001ms, 1206ms total)
T2584 001:493 JLINK_WriteReg(R4, 0x00000000)  returns 0x00 (0000ms, 1207ms total)
T2584 001:493 JLINK_WriteReg(R5, 0x00000000)  returns 0x00 (0000ms, 1207ms total)
T2584 001:493 JLINK_WriteReg(R6, 0x00000000)  returns 0x00 (0000ms, 1207ms total)
T2584 001:493 JLINK_WriteReg(R7, 0x00000000)  returns 0x00 (0000ms, 1207ms total)
T2584 001:493 JLINK_WriteReg(R8, 0x00000000)  returns 0x00 (0001ms, 1207ms total)
T2584 001:494 JLINK_WriteReg(R9, 0x20000160)  returns 0x00 (0000ms, 1208ms total)
T2584 001:494 JLINK_WriteReg(R10, 0x00000000)  returns 0x00 (0000ms, 1208ms total)
T2584 001:494 JLINK_WriteReg(R11, 0x00000000)  returns 0x00 (0000ms, 1208ms total)
T2584 001:494 JLINK_WriteReg(R12, 0x00000000)  returns 0x00 (0000ms, 1208ms total)
T2584 001:494 JLINK_WriteReg(R13, 0x20001000)  returns 0x00 (0001ms, 1208ms total)
T2584 001:495 JLINK_WriteReg(R14, 0x20000001)  returns 0x00 (0000ms, 1209ms total)
T2584 001:495 JLINK_WriteReg(R15, 0x20000020)  returns 0x00 (0000ms, 1209ms total)
T2584 001:495 JLINK_WriteReg(XPSR, 0x01000000)  returns 0x00 (0000ms, 1209ms total)
T2584 001:495 JLINK_WriteReg(MSP, 0x20001000)  returns 0x00 (0000ms, 1209ms total)
T2584 001:495 JLINK_WriteReg(PSP, 0x20001000)  returns 0x00 (0001ms, 1209ms total)
T2584 001:496 JLINK_WriteReg(CFBP, 0x00000000)  returns 0x00 (0000ms, 1210ms total)
T2584 001:496 JLINK_SetBPEx(Addr = 0x20000000, Type = 0xFFFFFFF2)  returns 0x0000000A (0000ms, 1210ms total)
T2584 001:496 JLINK_Go() -- CPU_WriteMem(4 bytes @ 0xE0002008) -- CPU_WriteMem(4 bytes @ 0xE000200C) -- CPU_WriteMem(4 bytes @ 0xE0002010) -- CPU_WriteMem(4 bytes @ 0xE0002014) -- CPU_WriteMem(4 bytes @ 0xE0002018) -- CPU_WriteMem(4 bytes @ 0xE000201C) (0007ms, 1210ms total)
T2584 001:504 JLINK_IsHalted() -- CPU_ReadMem(2 bytes @ 0x20000000)  returns TRUE (0004ms, 1218ms total)
T2584 001:508 JLINK_ReadReg(R15)  returns 0x20000000 (0000ms, 1218ms total)
T2584 001:508 JLINK_ClrBPEx(BPHandle = 0x0000000A)  returns 0x00 (0000ms, 1218ms total)
T2584 001:508 JLINK_ReadReg(R0)  returns 0x00000001 (0001ms, 1218ms total)
T2584 001:509 JLINK_WriteReg(R0, 0x08002000)  returns 0x00 (0000ms, 1219ms total)
T2584 001:509 JLINK_WriteReg(R1, 0x00000800)  returns 0x00 (0000ms, 1219ms total)
T2584 001:509 JLINK_WriteReg(R2, 0x000000FF)  returns 0x00 (0000ms, 1219ms total)
T2584 001:509 JLINK_WriteReg(R3, 0x00000000)  returns 0x00 (0000ms, 1219ms total)
T2584 001:509 JLINK_WriteReg(R4, 0x00000000)  returns 0x00 (0000ms, 1219ms total)
T2584 001:510 JLINK_WriteReg(R5, 0x00000000)  returns 0x00 (0000ms, 1220ms total)
T2584 001:510 JLINK_WriteReg(R6, 0x00000000)  returns 0x00 (0000ms, 1220ms total)
T2584 001:510 JLINK_WriteReg(R7, 0x00000000)  returns 0x00 (0000ms, 1220ms total)
T2584 001:510 JLINK_WriteReg(R8, 0x00000000)  returns 0x00 (0000ms, 1220ms total)
T2584 001:510 JLINK_WriteReg(R9, 0x20000160)  returns 0x00 (0000ms, 1220ms total)
T2584 001:510 JLINK_WriteReg(R10, 0x00000000)  returns 0x00 (0001ms, 1220ms total)
T2584 001:511 JLINK_WriteReg(R11, 0x00000000)  returns 0x00 (0000ms, 1221ms total)
T2584 001:511 JLINK_WriteReg(R12, 0x00000000)  returns 0x00 (0000ms, 1221ms total)
T2584 001:511 JLINK_WriteReg(R13, 0x20001000)  returns 0x00 (0000ms, 1221ms total)
T2584 001:511 JLINK_WriteReg(R14, 0x20000001)  returns 0x00 (0000ms, 1221ms total)
T2584 001:511 JLINK_WriteReg(R15, 0x200000B6)  returns 0x00 (0001ms, 1221ms total)
T2584 001:512 JLINK_WriteReg(XPSR, 0x01000000)  returns 0x00 (0000ms, 1222ms total)
T2584 001:512 JLINK_WriteReg(MSP, 0x20001000)  returns 0x00 (0000ms, 1222ms total)
T2584 001:512 JLINK_WriteReg(PSP, 0x20001000)  returns 0x00 (0000ms, 1222ms total)
T2584 001:512 JLINK_WriteReg(CFBP, 0x00000000)  returns 0x00 (0000ms, 1222ms total)
T2584 001:513 JLINK_SetBPEx(Addr = 0x20000000, Type = 0xFFFFFFF2)  returns 0x0000000B (0000ms, 1223ms total)
T2584 001:513 JLINK_Go() -- CPU_WriteMem(4 bytes @ 0xE0002008) -- CPU_WriteMem(4 bytes @ 0xE000200C) -- CPU_WriteMem(4 bytes @ 0xE0002010) -- CPU_WriteMem(4 bytes @ 0xE0002014) -- CPU_WriteMem(4 bytes @ 0xE0002018) -- CPU_WriteMem(4 bytes @ 0xE000201C) (0006ms, 1223ms total)
T2584 001:519 JLINK_IsHalted()  returns FALSE (0001ms, 1229ms total)
T2584 001:526 JLINK_IsHalted()  returns FALSE (0001ms, 1229ms total)
T2584 001:529 JLINK_IsHalted()  returns FALSE (0001ms, 1229ms total)
T2584 001:532 JLINK_IsHalted()  returns FALSE (0001ms, 1229ms total)
T2584 001:537 JLINK_IsHalted()  returns FALSE (0001ms, 1229ms total)
T2584 001:544 JLINK_IsHalted() -- CPU_ReadMem(2 bytes @ 0x20000000)  returns TRUE (0005ms, 1229ms total)
T2584 001:549 JLINK_ReadReg(R15)  returns 0x20000000 (0000ms, 1229ms total)
T2584 001:549 JLINK_ClrBPEx(BPHandle = 0x0000000B)  returns 0x00 (0000ms, 1229ms total)
T2584 001:549 JLINK_ReadReg(R0)  returns 0x00000000 (0000ms, 1229ms total)
T2584 001:550 JLINK_WriteReg(R0, 0x00000001)  returns 0x00 (0000ms, 1229ms total)
T2584 001:550 JLINK_WriteReg(R1, 0x00000800)  returns 0x00 (0000ms, 1229ms total)
T2584 001:550 JLINK_WriteReg(R2, 0x000000FF)  returns 0x00 (0000ms, 1229ms total)
T2584 001:550 JLINK_WriteReg(R3, 0x00000000)  returns 0x00 (0000ms, 1229ms total)
T2584 001:550 JLINK_WriteReg(R4, 0x00000000)  returns 0x00 (0001ms, 1229ms total)
T2584 001:551 JLINK_WriteReg(R5, 0x00000000)  returns 0x00 (0000ms, 1230ms total)
T2584 001:551 JLINK_WriteReg(R6, 0x00000000)  returns 0x00 (0000ms, 1230ms total)
T2584 001:551 JLINK_WriteReg(R7, 0x00000000)  returns 0x00 (0000ms, 1230ms total)
T2584 001:551 JLINK_WriteReg(R8, 0x00000000)  returns 0x00 (0000ms, 1230ms total)
T2584 001:551 JLINK_WriteReg(R9, 0x20000160)  returns 0x00 (0001ms, 1230ms total)
T2584 001:552 JLINK_WriteReg(R10, 0x00000000)  returns 0x00 (0000ms, 1231ms total)
T2584 001:552 JLINK_WriteReg(R11, 0x00000000)  returns 0x00 (0000ms, 1231ms total)
T2584 001:552 JLINK_WriteReg(R12, 0x00000000)  returns 0x00 (0000ms, 1231ms total)
T2584 001:552 JLINK_WriteReg(R13, 0x20001000)  returns 0x00 (0000ms, 1231ms total)
T2584 001:552 JLINK_WriteReg(R14, 0x20000001)  returns 0x00 (0000ms, 1231ms total)
T2584 001:553 JLINK_WriteReg(R15, 0x2000006A)  returns 0x00 (0000ms, 1232ms total)
T2584 001:553 JLINK_WriteReg(XPSR, 0x01000000)  returns 0x00 (0000ms, 1232ms total)
T2584 001:553 JLINK_WriteReg(MSP, 0x20001000)  returns 0x00 (0000ms, 1232ms total)
T2584 001:553 JLINK_WriteReg(PSP, 0x20001000)  returns 0x00 (0000ms, 1232ms total)
T2584 001:553 JLINK_WriteReg(CFBP, 0x00000000)  returns 0x00 (0000ms, 1232ms total)
T2584 001:554 JLINK_SetBPEx(Addr = 0x20000000, Type = 0xFFFFFFF2)  returns 0x0000000C (0000ms, 1233ms total)
T2584 001:554 JLINK_Go() -- CPU_WriteMem(4 bytes @ 0xE0002008) -- CPU_WriteMem(4 bytes @ 0xE000200C) -- CPU_WriteMem(4 bytes @ 0xE0002010) -- CPU_WriteMem(4 bytes @ 0xE0002014) -- CPU_WriteMem(4 bytes @ 0xE0002018) -- CPU_WriteMem(4 bytes @ 0xE000201C) (0008ms, 1233ms total)
T2584 001:563 JLINK_IsHalted() -- CPU_ReadMem(2 bytes @ 0x20000000)  returns TRUE (0005ms, 1242ms total)
T2584 001:568 JLINK_ReadReg(R15)  returns 0x20000000 (0000ms, 1242ms total)
T2584 001:568 JLINK_ClrBPEx(BPHandle = 0x0000000C)  returns 0x00 (0000ms, 1242ms total)
T2584 001:568 JLINK_ReadReg(R0)  returns 0x00000000 (0001ms, 1242ms total)
T2584 001:639 JLINK_WriteMem(0x20000000, 0x0164 Bytes, ...) -- Data:  00 BE 0A E0 0D 78 2D 06 68 40 08 24 40 00 00 D3 ... -- CPU_WriteMem(356 bytes @ 0x20000000)  returns 0x164 (0006ms, 1243ms total)
T2584 001:645 JLINK_WriteReg(R0, 0x08000000)  returns 0x00 (0001ms, 1249ms total)
T2584 001:646 JLINK_WriteReg(R1, 0x00B71B00)  returns 0x00 (0000ms, 1250ms total)
T2584 001:646 JLINK_WriteReg(R2, 0x00000002)  returns 0x00 (0001ms, 1250ms total)
T2584 001:647 JLINK_WriteReg(R3, 0x00000000)  returns 0x00 (0001ms, 1251ms total)
T2584 001:648 JLINK_WriteReg(R4, 0x00000000)  returns 0x00 (0000ms, 1252ms total)
T2584 001:648 JLINK_WriteReg(R5, 0x00000000)  returns 0x00 (0001ms, 1252ms total)
T2584 001:649 JLINK_WriteReg(R6, 0x00000000)  returns 0x00 (0001ms, 1253ms total)
T2584 001:650 JLINK_WriteReg(R7, 0x00000000)  returns 0x00 (0000ms, 1254ms total)
T2584 001:650 JLINK_WriteReg(R8, 0x00000000)  returns 0x00 (0001ms, 1254ms total)
T2584 001:651 JLINK_WriteReg(R9, 0x20000160)  returns 0x00 (0000ms, 1255ms total)
T2584 001:652 JLINK_WriteReg(R10, 0x00000000)  returns 0x00 (0000ms, 1256ms total)
T2584 001:652 JLINK_WriteReg(R11, 0x00000000)  returns 0x00 (0001ms, 1256ms total)
T2584 001:653 JLINK_WriteReg(R12, 0x00000000)  returns 0x00 (0000ms, 1257ms total)
T2584 001:653 JLINK_WriteReg(R13, 0x20001000)  returns 0x00 (0001ms, 1257ms total)
T2584 001:654 JLINK_WriteReg(R14, 0x20000001)  returns 0x00 (0001ms, 1258ms total)
T2584 001:655 JLINK_WriteReg(R15, 0x20000038)  returns 0x00 (0000ms, 1259ms total)
T2584 001:655 JLINK_WriteReg(XPSR, 0x01000000)  returns 0x00 (0001ms, 1259ms total)
T2584 001:656 JLINK_WriteReg(MSP, 0x20001000)  returns 0x00 (0000ms, 1260ms total)
T2584 001:656 JLINK_WriteReg(PSP, 0x20001000)  returns 0x00 (0001ms, 1260ms total)
T2584 001:657 JLINK_WriteReg(CFBP, 0x00000000)  returns 0x00 (0001ms, 1261ms total)
T2584 001:658 JLINK_SetBPEx(Addr = 0x20000000, Type = 0xFFFFFFF2) -- CPU_ReadMem(2 bytes @ 0x20000000)  returns 0x0000000D (0001ms, 1262ms total)
T2584 001:659 JLINK_Go() -- CPU_WriteMem(2 bytes @ 0x20000000) -- CPU_WriteMem(4 bytes @ 0xE0002008) -- CPU_WriteMem(4 bytes @ 0xE000200C) -- CPU_WriteMem(4 bytes @ 0xE0002010) -- CPU_WriteMem(4 bytes @ 0xE0002014) -- CPU_WriteMem(4 bytes @ 0xE0002018) -- CPU_WriteMem(4 bytes @ 0xE000201C) (0009ms, 1263ms total)
T2584 001:668 JLINK_IsHalted() -- CPU_ReadMem(2 bytes @ 0x20000000)  returns TRUE (0006ms, 1272ms total)
T2584 001:674 JLINK_ReadReg(R15)  returns 0x20000000 (0000ms, 1272ms total)
T2584 001:675 JLINK_ClrBPEx(BPHandle = 0x0000000D)  returns 0x00 (0000ms, 1273ms total)
T2584 001:675 JLINK_ReadReg(R0)  returns 0x00000000 (0001ms, 1273ms total)
T2584 001:676 JLINK_WriteMem(0x20000164, 0x0400 Bytes, ...) -- Data:  78 09 00 20 ED 01 00 08 F5 01 00 08 F7 01 00 08 ... -- CPU_WriteMem(1024 bytes @ 0x20000164)  returns 0x400 (0014ms, 1274ms total)
T2584 001:690 JLINK_WriteReg(R0, 0x08000000)  returns 0x00 (0000ms, 1288ms total)
T2584 001:690 JLINK_WriteReg(R1, 0x00000400)  returns 0x00 (0000ms, 1288ms total)
T2584 001:690 JLINK_WriteReg(R2, 0x20000164)  returns 0x00 (0001ms, 1288ms total)
T2584 001:691 JLINK_WriteReg(R3, 0x00000000)  returns 0x00 (0000ms, 1289ms total)
T2584 001:691 JLINK_WriteReg(R4, 0x00000000)  returns 0x00 (0000ms, 1289ms total)
T2584 001:691 JLINK_WriteReg(R5, 0x00000000)  returns 0x00 (0000ms, 1289ms total)
T2584 001:691 JLINK_WriteReg(R6, 0x00000000)  returns 0x00 (0000ms, 1289ms total)
T2584 001:691 JLINK_WriteReg(R7, 0x00000000)  returns 0x00 (0001ms, 1289ms total)
T2584 001:692 JLINK_WriteReg(R8, 0x00000000)  returns 0x00 (0000ms, 1290ms total)
T2584 001:692 JLINK_WriteReg(R9, 0x20000160)  returns 0x00 (0000ms, 1290ms total)
T2584 001:692 JLINK_WriteReg(R10, 0x00000000)  returns 0x00 (0000ms, 1290ms total)
T2584 001:692 JLINK_WriteReg(R11, 0x00000000)  returns 0x00 (0000ms, 1290ms total)
T2584 001:692 JLINK_WriteReg(R12, 0x00000000)  returns 0x00 (0001ms, 1290ms total)
T2584 001:693 JLINK_WriteReg(R13, 0x20001000)  returns 0x00 (0000ms, 1291ms total)
T2584 001:693 JLINK_WriteReg(R14, 0x20000001)  returns 0x00 (0000ms, 1291ms total)
T2584 001:693 JLINK_WriteReg(R15, 0x200000F4)  returns 0x00 (0000ms, 1291ms total)
T2584 001:693 JLINK_WriteReg(XPSR, 0x01000000)  returns 0x00 (0000ms, 1291ms total)
T2584 001:693 JLINK_WriteReg(MSP, 0x20001000)  returns 0x00 (0001ms, 1291ms total)
T2584 001:694 JLINK_WriteReg(PSP, 0x20001000)  returns 0x00 (0000ms, 1292ms total)
T2584 001:694 JLINK_WriteReg(CFBP, 0x00000000)  returns 0x00 (0000ms, 1292ms total)
T2584 001:694 JLINK_SetBPEx(Addr = 0x20000000, Type = 0xFFFFFFF2)  returns 0x0000000E (0000ms, 1292ms total)
T2584 001:694 JLINK_Go() -- CPU_WriteMem(4 bytes @ 0xE0002008) -- CPU_WriteMem(4 bytes @ 0xE000200C) -- CPU_WriteMem(4 bytes @ 0xE0002010) -- CPU_WriteMem(4 bytes @ 0xE0002014) -- CPU_WriteMem(4 bytes @ 0xE0002018) -- CPU_WriteMem(4 bytes @ 0xE000201C) (0008ms, 1292ms total)
T2584 001:702 JLINK_IsHalted()  returns FALSE (0001ms, 1300ms total)
T2584 001:707 JLINK_IsHalted()  returns FALSE (0000ms, 1300ms total)
T2584 001:710 JLINK_IsHalted()  returns FALSE (0001ms, 1300ms total)
T2584 001:714 JLINK_IsHalted()  returns FALSE (0000ms, 1300ms total)
T2584 001:718 JLINK_IsHalted()  returns FALSE (0000ms, 1300ms total)
T2584 001:720 JLINK_IsHalted()  returns FALSE (0002ms, 1300ms total)
T2584 001:727 JLINK_IsHalted()  returns FALSE (0002ms, 1300ms total)
T2584 001:732 JLINK_IsHalted()  returns FALSE (0001ms, 1300ms total)
T2584 001:736 JLINK_IsHalted() -- CPU_ReadMem(2 bytes @ 0x20000000)  returns TRUE (0004ms, 1300ms total)
T2584 001:740 JLINK_ReadReg(R15)  returns 0x20000000 (0001ms, 1300ms total)
T2584 001:741 JLINK_ClrBPEx(BPHandle = 0x0000000E)  returns 0x00 (0000ms, 1301ms total)
T2584 001:741 JLINK_ReadReg(R0)  returns 0x00000000 (0001ms, 1301ms total)
T2584 001:743 JLINK_WriteMem(0x20000164, 0x0400 Bytes, ...) -- Data:  01 98 01 F0 E7 FC 01 90 1B 99 13 98 01 F0 E2 FC ... -- CPU_WriteMem(1024 bytes @ 0x20000164)  returns 0x400 (0013ms, 1302ms total)
T2584 001:756 JLINK_WriteReg(R0, 0x08000400)  returns 0x00 (0001ms, 1315ms total)
T2584 001:757 JLINK_WriteReg(R1, 0x00000400)  returns 0x00 (0000ms, 1316ms total)
T2584 001:757 JLINK_WriteReg(R2, 0x20000164)  returns 0x00 (0001ms, 1316ms total)
T2584 001:758 JLINK_WriteReg(R3, 0x00000000)  returns 0x00 (0000ms, 1317ms total)
T2584 001:758 JLINK_WriteReg(R4, 0x00000000)  returns 0x00 (0001ms, 1317ms total)
T2584 001:759 JLINK_WriteReg(R5, 0x00000000)  returns 0x00 (0000ms, 1318ms total)
T2584 001:759 JLINK_WriteReg(R6, 0x00000000)  returns 0x00 (0000ms, 1318ms total)
T2584 001:760 JLINK_WriteReg(R7, 0x00000000)  returns 0x00 (0000ms, 1319ms total)
T2584 001:760 JLINK_WriteReg(R8, 0x00000000)  returns 0x00 (0000ms, 1319ms total)
T2584 001:761 JLINK_WriteReg(R9, 0x20000160)  returns 0x00 (0000ms, 1320ms total)
T2584 001:761 JLINK_WriteReg(R10, 0x00000000)  returns 0x00 (0000ms, 1320ms total)
T2584 001:761 JLINK_WriteReg(R11, 0x00000000)  returns 0x00 (0001ms, 1320ms total)
T2584 001:762 JLINK_WriteReg(R12, 0x00000000)  returns 0x00 (0000ms, 1321ms total)
T2584 001:762 JLINK_WriteReg(R13, 0x20001000)  returns 0x00 (0001ms, 1321ms total)
T2584 001:763 JLINK_WriteReg(R14, 0x20000001)  returns 0x00 (0000ms, 1322ms total)
T2584 001:763 JLINK_WriteReg(R15, 0x200000F4)  returns 0x00 (0001ms, 1322ms total)
T2584 001:764 JLINK_WriteReg(XPSR, 0x01000000)  returns 0x00 (0000ms, 1323ms total)
T2584 001:764 JLINK_WriteReg(MSP, 0x20001000)  returns 0x00 (0000ms, 1323ms total)
T2584 001:765 JLINK_WriteReg(PSP, 0x20001000)  returns 0x00 (0000ms, 1324ms total)
T2584 001:765 JLINK_WriteReg(CFBP, 0x00000000)  returns 0x00 (0000ms, 1324ms total)
T2584 001:766 JLINK_SetBPEx(Addr = 0x20000000, Type = 0xFFFFFFF2)  returns 0x0000000F (0000ms, 1325ms total)
T2584 001:766 JLINK_Go() -- CPU_WriteMem(4 bytes @ 0xE0002008) -- CPU_WriteMem(4 bytes @ 0xE000200C) -- CPU_WriteMem(4 bytes @ 0xE0002010) -- CPU_WriteMem(4 bytes @ 0xE0002014) -- CPU_WriteMem(4 bytes @ 0xE0002018) -- CPU_WriteMem(4 bytes @ 0xE000201C) (0006ms, 1325ms total)
T2584 001:772 JLINK_IsHalted()  returns FALSE (0002ms, 1331ms total)
T2584 001:778 JLINK_IsHalted()  returns FALSE (0001ms, 1331ms total)
T2584 001:788 JLINK_IsHalted()  returns FALSE (0001ms, 1331ms total)
T2584 001:795 JLINK_IsHalted()  returns FALSE (0001ms, 1331ms total)
T2584 001:797 JLINK_IsHalted()  returns FALSE (0001ms, 1331ms total)
T2584 001:800 JLINK_IsHalted()  returns FALSE (0001ms, 1331ms total)
T2584 001:804 JLINK_IsHalted() -- CPU_ReadMem(2 bytes @ 0x20000000)  returns TRUE (0005ms, 1331ms total)
T2584 001:809 JLINK_ReadReg(R15)  returns 0x20000000 (0000ms, 1331ms total)
T2584 001:809 JLINK_ClrBPEx(BPHandle = 0x0000000F)  returns 0x00 (0000ms, 1331ms total)
T2584 001:809 JLINK_ReadReg(R0)  returns 0x00000000 (0001ms, 1331ms total)
T2584 001:810 JLINK_WriteMem(0x20000164, 0x0400 Bytes, ...) -- Data:  1B 99 13 98 01 F0 E6 FA 13 90 17 99 12 98 01 F0 ... -- CPU_WriteMem(1024 bytes @ 0x20000164)  returns 0x400 (0013ms, 1332ms total)
T2584 001:823 JLINK_WriteReg(R0, 0x08000800)  returns 0x00 (0000ms, 1345ms total)
T2584 001:823 JLINK_WriteReg(R1, 0x00000400)  returns 0x00 (0000ms, 1345ms total)
T2584 001:823 JLINK_WriteReg(R2, 0x20000164)  returns 0x00 (0000ms, 1345ms total)
T2584 001:823 JLINK_WriteReg(R3, 0x00000000)  returns 0x00 (0000ms, 1345ms total)
T2584 001:824 JLINK_WriteReg(R4, 0x00000000)  returns 0x00 (0000ms, 1346ms total)
T2584 001:824 JLINK_WriteReg(R5, 0x00000000)  returns 0x00 (0000ms, 1346ms total)
T2584 001:824 JLINK_WriteReg(R6, 0x00000000)  returns 0x00 (0000ms, 1346ms total)
T2584 001:824 JLINK_WriteReg(R7, 0x00000000)  returns 0x00 (0000ms, 1346ms total)
T2584 001:824 JLINK_WriteReg(R8, 0x00000000)  returns 0x00 (0000ms, 1346ms total)
T2584 001:825 JLINK_WriteReg(R9, 0x20000160)  returns 0x00 (0000ms, 1347ms total)
T2584 001:825 JLINK_WriteReg(R10, 0x00000000)  returns 0x00 (0000ms, 1347ms total)
T2584 001:825 JLINK_WriteReg(R11, 0x00000000)  returns 0x00 (0000ms, 1347ms total)
T2584 001:825 JLINK_WriteReg(R12, 0x00000000)  returns 0x00 (0000ms, 1347ms total)
T2584 001:825 JLINK_WriteReg(R13, 0x20001000)  returns 0x00 (0001ms, 1347ms total)
T2584 001:826 JLINK_WriteReg(R14, 0x20000001)  returns 0x00 (0000ms, 1348ms total)
T2584 001:826 JLINK_WriteReg(R15, 0x200000F4)  returns 0x00 (0000ms, 1348ms total)
T2584 001:826 JLINK_WriteReg(XPSR, 0x01000000)  returns 0x00 (0000ms, 1348ms total)
T2584 001:826 JLINK_WriteReg(MSP, 0x20001000)  returns 0x00 (0000ms, 1348ms total)
